


                               __________________________________________
                              |                                          |
                              |  NUMERICAL ELECTROMAGNETICS CODE (nec2c) |
                              |   Translated to 'C' in Double Precision  |
                              |__________________________________________|



                               ---------------- COMMENTS ----------------
                               Simple Dipole
                              



                               -------- STRUCTURE SPECIFICATION --------
                                     COORDINATES MUST BE INPUT IN
                                     METERS OR BE SCALED TO METERS
                                     BEFORE STRUCTURE INPUT IS ENDED

  WIRE                                                                                 SEG FIRST  LAST  TAG
   No:        X1         Y1         Z1         X2         Y2         Z2       RADIUS   No:   SEG   SEG  No:
     1     0.00000    0.00000   -0.25000    0.00000    0.00000    0.25000    0.00100    11     1    11    1

     TOTAL SEGMENTS USED: 11   SEGMENTS IN A SYMMETRIC CELL: 11   SYMMETRY FLAG: 0


                               ---------- SEGMENTATION DATA ----------
                                        COORDINATES IN METERS
                            I+ AND I- INDICATE THE SEGMENTS BEFORE AND AFTER I

   SEG    COORDINATES OF SEGM CENTER     SEGM    ORIENTATION ANGLES    WIRE    CONNECTION DATA   TAG
   No:       X         Y         Z      LENGTH     ALPHA      BETA    RADIUS    I-     I    I+   No:
     1    0.0000    0.0000   -0.2273    0.0455   90.0000    0.0000    0.0010     0     1     2     1
     2    0.0000    0.0000   -0.1818    0.0455   90.0000    0.0000    0.0010     1     2     3     1
     3    0.0000    0.0000   -0.1364    0.0455   90.0000    0.0000    0.0010     2     3     4     1
     4    0.0000    0.0000   -0.0909    0.0455   90.0000    0.0000    0.0010     3     4     5     1
     5    0.0000    0.0000   -0.0455    0.0455   90.0000    0.0000    0.0010     4     5     6     1
     6    0.0000    0.0000    0.0000    0.0455   90.0000    0.0000    0.0010     5     6     7     1
     7    0.0000    0.0000    0.0455    0.0455   90.0000    0.0000    0.0010     6     7     8     1
     8    0.0000    0.0000    0.0909    0.0455   90.0000    0.0000    0.0010     7     8     9     1
     9    0.0000    0.0000    0.1364    0.0455   90.0000    0.0000    0.0010     8     9    10     1
    10    0.0000    0.0000    0.1818    0.0455   90.0000    0.0000    0.0010     9    10    11     1
    11    0.0000    0.0000    0.2273    0.0455   90.0000    0.0000    0.0010    10    11     0     1



  DATA CARD No:   1 EX   0     1     6     0  1.00000E+00  0.00000E+00  0.00000E+00  0.00000E+00  0.00000E+00  0.00000E+00
  DATA CARD No:   2 FR   0     1     0     0  2.99790E+02  0.00000E+00  0.00000E+00  0.00000E+00  0.00000E+00  0.00000E+00
  DATA CARD No:   3 XQ   0     0     0     0  0.00000E+00  0.00000E+00  0.00000E+00  0.00000E+00  0.00000E+00  0.00000E+00


                               --------- FREQUENCY --------
                                FREQUENCY : 2.9979E+02 MHz
                                WAVELENGTH: 1.0000E+00 Mtr

                        APPROXIMATE INTEGRATION EMPLOYED FOR SEGMENTS 
                        THAT ARE MORE THAN 1.000 WAVELENGTHS APART


                          ------ STRUCTURE IMPEDANCE LOADING ------
                                 THIS STRUCTURE IS NOT LOADED


                            -------- ANTENNA ENVIRONMENT --------
                            FREE SPACE


                             ---------- MATRIX TIMING ----------
                               FILL: 0 msec  FACTOR: 0 msec


                        --------- ANTENNA INPUT PARAMETERS ---------
  TAG   SEG       VOLTAGE (VOLTS)         CURRENT (AMPS)         IMPEDANCE (OHMS)        ADMITTANCE (MHOS)     POWER
  No:   No:     REAL      IMAGINARY     REAL      IMAGINARY     REAL      IMAGINARY    REAL       IMAGINARY   (WATTS)
    1     6  1.0000E+00  0.0000E+00  9.0768E-03 -5.1093E-03  8.3662E+01  4.7093E+01  9.0768E-03 -5.1093E-03  4.5384E-03


                           -------- CURRENTS AND LOCATION --------
                                  DISTANCES IN WAVELENGTHS

   SEG  TAG    COORDINATES OF SEGM CENTER     SEGM    ------------- CURRENT (AMPS) -------------
   No:  No:       X         Y         Z      LENGTH     REAL      IMAGINARY    MAGN        PHASE
     1    1    0.0000    0.0000   -0.2273   0.04545  1.5990E-03 -1.1835E-03  1.9893E-03  -36.507
     2    1    0.0000    0.0000   -0.1818   0.04545  4.1308E-03 -2.9543E-03  5.0785E-03  -35.572
     3    1    0.0000    0.0000   -0.1364   0.04545  6.1914E-03 -4.2521E-03  7.5109E-03  -34.480
     4    1    0.0000    0.0000   -0.0909   0.04545  7.7587E-03 -5.0678E-03  9.2672E-03  -33.151
     5    1    0.0000    0.0000   -0.0455   0.04545  8.7417E-03 -5.3268E-03  1.0237E-02  -31.356
     6    1    0.0000    0.0000    0.0000   0.04545  9.0768E-03 -5.1093E-03  1.0416E-02  -29.375
     7    1    0.0000    0.0000    0.0455   0.04545  8.7417E-03 -5.3268E-03  1.0237E-02  -31.356
     8    1    0.0000    0.0000    0.0909   0.04545  7.7587E-03 -5.0678E-03  9.2672E-03  -33.151
     9    1    0.0000    0.0000    0.1364   0.04545  6.1914E-03 -4.2521E-03  7.5109E-03  -34.480
    10    1    0.0000    0.0000    0.1818   0.04545  4.1308E-03 -2.9543E-03  5.0785E-03  -35.572
    11    1    0.0000    0.0000    0.2273   0.04545  1.5990E-03 -1.1835E-03  1.9893E-03  -36.507


                               ---------- POWER BUDGET ---------
                               INPUT POWER   =  4.5384E-03 Watts
                               RADIATED POWER=  4.5384E-03 Watts
                               STRUCTURE LOSS=  0.0000E+00 Watts
                               NETWORK LOSS  =  0.0000E+00 Watts
                               EFFICIENCY    =  100.00 Percent



  DATA CARD No:   4 EN   0     0     0     0  0.00000E+00  0.00000E+00  0.00000E+00  0.00000E+00  0.00000E+00  0.00000E+00

  TOTAL RUN TIME: 0 msec